 (1784282227.178743)  can0  TX - -  601   [8]  40 00 14 01 00 00 00 00
 (1784282227.182126)  can0  RX - -  581   [8]  43 00 14 01 01 02 00 00
 (1784282227.182964)  can0  TX - -  601   [8]  40 00 14 02 00 00 00 00
 (1784282227.187105)  can0  RX - -  581   [8]  4F 00 14 02 FE 00 00 00
 (1784282227.187736)  can0  TX - -  601   [8]  40 00 14 05 00 00 00 00
 (1784282227.192088)  can0  RX - -  581   [8]  4B 00 14 05 C8 00 00 00
 (1784282227.192822)  can0  TX - -  601   [8]  40 00 16 00 00 00 00 00
 (1784282227.197096)  can0  RX - -  581   [8]  4F 00 16 00 02 00 00 00
 (1784282227.197769)  can0  TX - -  601   [8]  40 00 16 01 00 00 00 00
 (1784282227.202039)  can0  RX - -  581   [8]  43 00 16 01 10 00 42 60
 (1784282227.202691)  can0  TX - -  601   [8]  40 00 16 02 00 00 00 00
 (1784282227.207019)  can0  RX - -  581   [8]  43 00 16 02 10 00 42 68
 (1784282227.207707)  can0  TX - -  601   [8]  40 00 18 01 00 00 00 00
 (1784282227.212007)  can0  RX - -  581   [8]  43 00 18 01 81 01 00 40
 (1784282227.212737)  can0  TX - -  601   [8]  40 00 18 02 00 00 00 00
 (1784282227.216980)  can0  RX - -  581   [8]  4F 00 18 02 FE 00 00 00
 (1784282227.217656)  can0  TX - -  601   [8]  40 00 18 03 00 00 00 00
 (1784282227.221962)  can0  RX - -  581   [8]  4B 00 18 03 00 00 00 00
 (1784282227.222562)  can0  TX - -  601   [8]  40 00 18 05 00 00 00 00
 (1784282227.226941)  can0  RX - -  581   [8]  4B 00 18 05 28 00 00 00
 (1784282227.227524)  can0  TX - -  601   [8]  40 00 18 06 00 00 00 00
 (1784282227.231918)  can0  RX - -  581   [8]  4F 00 18 06 00 00 00 00
 (1784282227.232921)  can0  TX - -  601   [8]  40 00 1A 00 00 00 00 00
 (1784282227.236896)  can0  RX - -  581   [8]  4F 00 1A 00 05 00 00 00
 (1784282227.237750)  can0  TX - -  601   [8]  40 00 1A 01 00 00 00 00
 (1784282227.241873)  can0  RX - -  581   [8]  43 00 1A 01 08 01 10 23
 (1784282227.242871)  can0  TX - -  601   [8]  40 00 1A 02 00 00 00 00
 (1784282227.246849)  can0  RX - -  581   [8]  43 00 1A 02 08 02 10 23
 (1784282227.247867)  can0  TX - -  601   [8]  40 00 1A 03 00 00 00 00
 (1784282227.251831)  can0  RX - -  581   [8]  43 00 1A 03 10 00 01 23
 (1784282227.252503)  can0  TX - -  601   [8]  40 00 1A 04 00 00 00 00
 (1784282227.256820)  can0  RX - -  581   [8]  43 00 1A 04 10 00 78 60
 (1784282227.257956)  can0  TX - -  601   [8]  40 00 1A 05 00 00 00 00
 (1784282227.261789)  can0  RX - -  581   [8]  43 00 1A 05 10 00 78 68
 (1784282227.262559)  can0  TX - -  601   [8]  40 01 18 01 00 00 00 00
 (1784282227.266774)  can0  RX - -  581   [8]  43 01 18 01 81 02 00 40
 (1784282227.267398)  can0  TX - -  601   [8]  40 01 18 02 00 00 00 00
 (1784282227.271755)  can0  RX - -  581   [8]  4F 01 18 02 FE 00 00 00
 (1784282227.272342)  can0  TX - -  601   [8]  40 01 18 03 00 00 00 00
 (1784282227.276848)  can0  RX - -  581   [8]  4B 01 18 03 00 00 00 00
 (1784282227.277441)  can0  TX - -  601   [8]  40 01 18 05 00 00 00 00
 (1784282227.281711)  can0  RX - -  581   [8]  4B 01 18 05 28 00 00 00
 (1784282227.282351)  can0  TX - -  601   [8]  40 01 18 06 00 00 00 00
 (1784282227.286690)  can0  RX - -  581   [8]  4F 01 18 06 00 00 00 00
 (1784282227.287280)  can0  TX - -  601   [8]  40 01 1A 00 00 00 00 00
 (1784282227.291672)  can0  RX - -  581   [8]  4F 01 1A 00 04 00 00 00
 (1784282227.292238)  can0  TX - -  601   [8]  40 01 1A 01 00 00 00 00
 (1784282227.296642)  can0  RX - -  581   [8]  43 01 1A 01 10 00 43 60
 (1784282227.297369)  can0  TX - -  601   [8]  40 01 1A 02 00 00 00 00
 (1784282227.301621)  can0  RX - -  581   [8]  43 01 1A 02 10 00 44 60
 (1784282227.302257)  can0  TX - -  601   [8]  40 01 1A 03 00 00 00 00
 (1784282227.306606)  can0  RX - -  581   [8]  43 01 1A 03 10 00 43 68
 (1784282227.307583)  can0  TX - -  601   [8]  40 01 1A 04 00 00 00 00
 (1784282227.311581)  can0  RX - -  581   [8]  43 01 1A 04 10 00 44 68
 (1784282227.312622)  can0  TX - -  601   [8]  40 02 18 01 00 00 00 00
 (1784282227.316564)  can0  RX - -  581   [8]  43 02 18 01 81 03 00 40
 (1784282227.317506)  can0  TX - -  601   [8]  40 02 18 02 00 00 00 00
 (1784282227.321546)  can0  RX - -  581   [8]  4F 02 18 02 FE 00 00 00
 (1784282227.322164)  can0  TX - -  601   [8]  40 02 18 03 00 00 00 00
 (1784282227.326524)  can0  RX - -  581   [8]  4B 02 18 03 00 00 00 00
 (1784282227.327188)  can0  TX - -  601   [8]  40 02 18 05 00 00 00 00
 (1784282227.331505)  can0  RX - -  581   [8]  4B 02 18 05 28 00 00 00
 (1784282227.332099)  can0  TX - -  601   [8]  40 02 18 06 00 00 00 00
 (1784282227.336486)  can0  RX - -  581   [8]  4F 02 18 06 00 00 00 00
 (1784282227.337066)  can0  TX - -  601   [8]  40 02 1A 00 00 00 00 00
 (1784282227.341466)  can0  RX - -  581   [8]  4F 02 1A 00 04 00 00 00
 (1784282227.342053)  can0  TX - -  601   [8]  40 02 1A 01 00 00 00 00
 (1784282227.346439)  can0  RX - -  581   [8]  43 02 1A 01 10 00 01 22
 (1784282227.347121)  can0  TX - -  601   [8]  40 02 1A 02 00 00 00 00
 (1784282227.351421)  can0  RX - -  581   [8]  43 02 1A 02 08 01 00 23
 (1784282227.352041)  can0  TX - -  601   [8]  40 02 1A 03 00 00 00 00
 (1784282227.356393)  can0  RX - -  581   [8]  43 02 1A 03 08 01 11 23
 (1784282227.357006)  can0  TX - -  601   [8]  40 02 1A 04 00 00 00 00
 (1784282227.361375)  can0  RX - -  581   [8]  43 02 1A 04 08 04 11 23
 (1784282227.362069)  can0  TX - -  601   [8]  40 03 18 01 00 00 00 00
 (1784282227.366363)  can0  RX - -  581   [8]  43 03 18 01 81 04 00 40
 (1784282227.366948)  can0  TX - -  601   [8]  40 03 18 02 00 00 00 00
 (1784282227.371341)  can0  RX - -  581   [8]  4F 03 18 02 FE 00 00 00
 (1784282227.371916)  can0  TX - -  601   [8]  40 03 18 03 00 00 00 00
 (1784282227.376436)  can0  RX - -  581   [8]  4B 03 18 03 00 00 00 00
 (1784282227.377005)  can0  TX - -  601   [8]  40 03 18 05 00 00 00 00
 (1784282227.381297)  can0  RX - -  581   [8]  4B 03 18 05 28 00 00 00
 (1784282227.381863)  can0  TX - -  601   [8]  40 03 18 06 00 00 00 00
 (1784282227.386278)  can0  RX - -  581   [8]  4F 03 18 06 00 00 00 00
 (1784282227.386838)  can0  TX - -  601   [8]  40 03 1A 00 00 00 00 00
 (1784282227.391258)  can0  RX - -  581   [8]  4F 03 1A 00 02 00 00 00
 (1784282227.391862)  can0  TX - -  601   [8]  40 03 1A 01 00 00 00 00
 (1784282227.396230)  can0  RX - -  581   [8]  43 03 1A 01 10 02 80 23
 (1784282227.396842)  can0  TX - -  601   [8]  40 03 1A 02 00 00 00 00
 (1784282227.401210)  can0  RX - -  581   [8]  43 03 1A 02 10 05 80 23
 (1784282227.402267)  can0  TX - -  601   [8]  23 03 18 01 81 04 00 C0
 (1784282227.406210)  can0  RX - -  581   [8]  60 03 18 01 00 00 00 00
 (1784282227.407207)  can0  TX - -  601   [8]  2F 03 18 02 FE 00 00 00
 (1784282227.411181)  can0  RX - -  581   [8]  60 03 18 02 00 00 00 00
 (1784282227.412082)  can0  TX - -  601   [8]  2B 03 18 03 00 00 00 00
 (1784282227.416158)  can0  RX - -  581   [8]  60 03 18 03 00 00 00 00
 (1784282227.416763)  can0  TX - -  601   [8]  2B 03 18 05 28 00 00 00
 (1784282227.421137)  can0  RX - -  581   [8]  60 03 18 05 00 00 00 00
 (1784282227.421716)  can0  TX - -  601   [8]  2F 03 18 06 00 00 00 00
 (1784282227.426116)  can0  RX - -  581   [8]  60 03 18 06 00 00 00 00
 (1784282227.426756)  can0  TX - -  601   [8]  2F 03 1A 00 00 00 00 00
 (1784282227.431096)  can0  RX - -  581   [8]  60 03 1A 00 00 00 00 00
 (1784282227.431678)  can0  TX - -  601   [8]  23 03 1A 01 10 02 80 23
 (1784282227.436076)  can0  RX - -  581   [8]  60 03 1A 01 00 00 00 00
 (1784282227.436620)  can0  TX - -  601   [8]  23 03 1A 02 10 05 80 23
 (1784282227.441065)  can0  RX - -  581   [8]  60 03 1A 02 00 00 00 00
 (1784282227.441847)  can0  TX - -  601   [8]  2F 03 1A 00 02 00 00 00
 (1784282227.446038)  can0  RX - -  581   [8]  60 03 1A 00 00 00 00 00
 (1784282227.446733)  can0  TX - -  601   [8]  23 03 18 01 81 04 00 40
 (1784282227.451020)  can0  RX - -  581   [8]  60 03 18 01 00 00 00 00
 (1784282227.451692)  can0  TX - -  601   [8]  40 75 60 00 00 00 00 00
 (1784282227.455987)  can0  RX - -  581   [8]  43 75 60 00 A8 61 00 00
 (1784282227.456626)  can0  TX - -  601   [8]  40 0A 10 00 00 00 00 00
 (1784282227.460974)  can0  RX - -  581   [8]  41 0A 10 00 11 00 00 00
 (1784282227.461582)  can0  TX - -  601   [8]  60 00 00 00 00 00 00 00
 (1784282227.465937)  can0  RX - -  581   [8]  00 76 33 2E 35 2E 32 2D
 (1784282227.466498)  can0  TX - -  601   [8]  70 00 00 00 00 00 00 00
 (1784282227.470916)  can0  RX - -  581   [8]  10 34 2D 67 35 30 63 65
 (1784282227.471465)  can0  TX - -  601   [8]  60 00 00 00 00 00 00 00
 (1784282227.476024)  can0  RX - -  581   [8]  09 39 37 30 00 00 00 00
 (1784282227.476869)  can0  TX - -  601   [8]  23 46 60 02 E8 03 00 00
 (1784282227.480891)  can0  RX - -  581   [8]  60 46 60 02 00 00 00 00
 (1784282227.481499)  can0  TX - -  601   [8]  23 48 60 01 10 27 00 00
 (1784282227.485870)  can0  RX - -  581   [8]  60 48 60 01 00 00 00 00
 (1784282227.486408)  can0  TX - -  601   [8]  2B 48 60 02 0A 00 00 00
 (1784282227.490848)  can0  RX - -  581   [8]  60 48 60 02 00 00 00 00
 (1784282227.491427)  can0  TX - -  601   [8]  23 49 60 01 10 27 00 00
 (1784282227.495828)  can0  RX - -  581   [8]  60 49 60 01 00 00 00 00
 (1784282227.496361)  can0  TX - -  601   [8]  2B 49 60 02 0A 00 00 00
 (1784282227.500808)  can0  RX - -  581   [8]  60 49 60 02 00 00 00 00
 (1784282227.501366)  can0  TX - -  601   [8]  23 46 68 02 E8 03 00 00
 (1784282227.505793)  can0  RX - -  581   [8]  60 46 68 02 00 00 00 00
 (1784282227.506625)  can0  TX - -  601   [8]  23 48 68 01 10 27 00 00
 (1784282227.510766)  can0  RX - -  581   [8]  60 48 68 01 00 00 00 00
 (1784282227.511537)  can0  TX - -  601   [8]  2B 48 68 02 0A 00 00 00
 (1784282227.515745)  can0  RX - -  581   [8]  60 48 68 02 00 00 00 00
 (1784282227.516353)  can0  TX - -  601   [8]  23 49 68 01 10 27 00 00
 (1784282227.520725)  can0  RX - -  581   [8]  60 49 68 01 00 00 00 00
 (1784282227.521321)  can0  TX - -  601   [8]  2B 49 68 02 0A 00 00 00
 (1784282227.525702)  can0  RX - -  581   [8]  60 49 68 02 00 00 00 00
 (1784282227.529423)  can0  TX - -  601   [8]  40 48 60 01 00 00 00 00
 (1784282227.530678)  can0  RX - -  581   [8]  43 48 60 01 10 27 00 00
 (1784282227.531218)  can0  TX - -  601   [8]  40 49 60 01 00 00 00 00
 (1784282227.535657)  can0  RX - -  581   [8]  43 49 60 01 10 27 00 00
 (1784282227.537913)  can0  TX - -  601   [8]  40 48 68 01 00 00 00 00
 (1784282227.540638)  can0  RX - -  581   [8]  43 48 68 01 10 27 00 00
 (1784282227.541325)  can0  TX - -  601   [8]  40 49 68 01 00 00 00 00
 (1784282227.545616)  can0  RX - -  581   [8]  43 49 68 01 10 27 00 00
